#-----------------------------------------------------------
# xsim v2024.1 (64-bit)
# SW Build 5076996 on Wed May 22 18:36:09 MDT 2024
# IP Build 5075265 on Wed May 22 21:45:21 MDT 2024
# SharedData Build 5076995 on Wed May 22 18:29:18 MDT 2024
# Start of session at: Tue Nov  5 17:55:40 2024
# Process ID: 81710
# Current directory: /home/flyinglobster/i2c-bridge-uvm/build
# Command line: xsim -mode tcl -source {xsim.dir/tb_top/xsim_script.tcl}
# Log file: /home/flyinglobster/i2c-bridge-uvm/build/xsim.log
# Journal file: /home/flyinglobster/i2c-bridge-uvm/build/xsim.jou
# Running On        :pop-os
# Platform          :Pop
# Operating System  :Pop!_OS 22.04 LTS
# Processor Detail  :AMD Ryzen 5 3600 6-Core Processor
# CPU Frequency     :2054.857 MHz
# CPU Physical cores:6
# CPU Logical cores :12
# Host memory       :33575 MB
# Swap memory       :21474 MB
# Total Virtual     :55050 MB
# Available Virtual :40524 MB
#-----------------------------------------------------------
source xsim.dir/tb_top/xsim_script.tcl
# xsim {tb_top} -testplusarg UVM_VERBOSITY=UVM_LOW -autoloadwcfg -runall
Time resolution is 1 ps
run -all
UVM_INFO /media/flyinglobster/wd/vivado/Vivado/2024.1/data/system_verilog/uvm_1.2/xlnx_uvm_package.sv(18601) @ 0: reporter [UVM/RELNOTES] 
----------------------------------------------------------------
UVM-1.2
(C) 2007-2014 Mentor Graphics Corporation
(C) 2007-2014 Cadence Design Systems, Inc.
(C) 2006-2014 Synopsys, Inc.
(C) 2011-2013 Cypress Semiconductor Corp.
(C) 2013-2014 NVIDIA Corporation
----------------------------------------------------------------

  ***********       IMPORTANT RELEASE NOTES         ************

  You are using a version of the UVM library that has been compiled
  with `UVM_NO_DEPRECATED undefined.

  You are using a version of the UVM library that has been compiled
  with `UVM_OBJECT_DO_NOT_NEED_CONSTRUCTOR undefined.

      (Specify +UVM_NO_RELNOTES to turn off this notice)

UVM_INFO @ 0: reporter [RNTST] Running test i2c_master_test...
UVM_INFO /home/flyinglobster/i2c-bridge-uvm/i2c_master_axil/i2c_master_env.sv(35) @ 0: uvm_test_top.env [ENV] All connections completed
UVM_INFO /media/flyinglobster/wd/vivado/Vivado/2024.1/data/system_verilog/uvm_1.2/xlnx_uvm_package.sv(20867) @ 0: reporter [UVM/COMP/NAMECHECK] This implementation of the component name checks requires DPI to be enabled
UVM_INFO /home/flyinglobster/i2c-bridge-uvm/i2c_master_axil/i2c_master_test.sv(15) @ 0: uvm_test_top [TEST] Starting config sequence
UVM_INFO /home/flyinglobster/i2c-bridge-uvm/i2c_master_axil/i2c_monitor.sv(74) @ 0: uvm_test_top.env.i2c_mon [I2C_MON] Waiting for I2C transaction...
UVM_INFO /home/flyinglobster/i2c-bridge-uvm/i2c_master_axil/i2c_master_test.sv(23) @ 1125000: uvm_test_top [TEST] Starting write/read sequence
UVM_INFO /home/flyinglobster/i2c-bridge-uvm/i2c_master_axil/sequences/write_read_seq.sv(19) @ 1125000: uvm_test_top.env.axil_seqr@@wr_seq [SEQ] Starting I2C write/read sequence
UVM_INFO /home/flyinglobster/i2c-bridge-uvm/i2c_master_axil/axil_monitor.sv(41) @ 1165000: uvm_test_top.env.axil_mon [AXIL_MON] Collected write transaction: addr=c data=00000950
UVM_INFO /home/flyinglobster/i2c-bridge-uvm/i2c_master_axil/i2c_master_scoreboard.sv(21) @ 1165000: uvm_test_top.env.scbd [SCBD] Received AXI transaction: addr=c data=00000950 read=0
UVM_INFO /home/flyinglobster/i2c-bridge-uvm/i2c_master_axil/i2c_master_scoreboard.sv(21) @ 1165000: uvm_test_top.env.scbd [SCBD] Received AXI transaction: addr=0 data=00000000 read=0
UVM_INFO /home/flyinglobster/i2c-bridge-uvm/i2c_master_axil/i2c_responder.sv(21) @ 1185000: uvm_test_top.env.i2c_resp [I2C_RESP] START condition detected
UVM_INFO /home/flyinglobster/i2c-bridge-uvm/i2c_master_axil/i2c_monitor.sv(37) @ 1195000: uvm_test_top.env.i2c_mon [I2C_MON] START condition detected at time 1195000
UVM_INFO /home/flyinglobster/i2c-bridge-uvm/i2c_master_axil/axil_monitor.sv(41) @ 1245000: uvm_test_top.env.axil_mon [AXIL_MON] Collected write transaction: addr=8 data=000002a5
UVM_INFO /home/flyinglobster/i2c-bridge-uvm/i2c_master_axil/i2c_master_scoreboard.sv(21) @ 1245000: uvm_test_top.env.scbd [SCBD] Received AXI transaction: addr=8 data=000002a5 read=0
UVM_INFO /home/flyinglobster/i2c-bridge-uvm/i2c_master_axil/i2c_master_scoreboard.sv(21) @ 1245000: uvm_test_top.env.scbd [SCBD] Received AXI transaction: addr=0 data=00000000 read=0
UVM_INFO /home/flyinglobster/i2c-bridge-uvm/i2c_master_axil/i2c_responder.sv(28) @ 1255000: uvm_test_top.env.i2c_resp [HAHAHAHAHA PER-NAME] [             1255000] bit           7 = 1
UVM_INFO /home/flyinglobster/i2c-bridge-uvm/i2c_master_axil/sequences/write_read_seq.sv(27) @ 1285000: uvm_test_top.env.axil_seqr@@wr_seq [SEQ] Sending I2C write command: addr=50 data=a5
UVM_INFO /home/flyinglobster/i2c-bridge-uvm/i2c_master_axil/i2c_responder.sv(28) @ 1355000: uvm_test_top.env.i2c_resp [HAHAHAHAHA PER-NAME] [             1355000] bit           6 = 0
UVM_INFO /home/flyinglobster/i2c-bridge-uvm/i2c_master_axil/i2c_responder.sv(28) @ 1455000: uvm_test_top.env.i2c_resp [HAHAHAHAHA PER-NAME] [             1455000] bit           5 = 1
UVM_INFO /home/flyinglobster/i2c-bridge-uvm/i2c_master_axil/i2c_responder.sv(28) @ 1555000: uvm_test_top.env.i2c_resp [HAHAHAHAHA PER-NAME] [             1555000] bit           4 = 0
UVM_INFO /home/flyinglobster/i2c-bridge-uvm/i2c_master_axil/i2c_responder.sv(28) @ 1655000: uvm_test_top.env.i2c_resp [HAHAHAHAHA PER-NAME] [             1655000] bit           3 = 0
UVM_INFO /home/flyinglobster/i2c-bridge-uvm/i2c_master_axil/i2c_responder.sv(28) @ 1755000: uvm_test_top.env.i2c_resp [HAHAHAHAHA PER-NAME] [             1755000] bit           2 = 0
UVM_INFO /home/flyinglobster/i2c-bridge-uvm/i2c_master_axil/i2c_responder.sv(28) @ 1855000: uvm_test_top.env.i2c_resp [HAHAHAHAHA PER-NAME] [             1855000] bit           1 = 0
UVM_INFO /home/flyinglobster/i2c-bridge-uvm/i2c_master_axil/i2c_responder.sv(28) @ 1955000: uvm_test_top.env.i2c_resp [HAHAHAHAHA PER-NAME] [             1955000] bit           0 = 0
UVM_INFO /home/flyinglobster/i2c-bridge-uvm/i2c_master_axil/i2c_monitor.sv(90) @ 2015000: uvm_test_top.env.i2c_mon [I2C_MON] Address byte=0x50, ACK=0 at time 2015000
UVM_INFO /home/flyinglobster/i2c-bridge-uvm/i2c_master_axil/i2c_responder.sv(28) @ 2185000: uvm_test_top.env.i2c_resp [HAHAHAHAHA PER-NAME] [             2185000] bit           7 = 0
UVM_INFO /home/flyinglobster/i2c-bridge-uvm/i2c_master_axil/i2c_responder.sv(28) @ 2285000: uvm_test_top.env.i2c_resp [HAHAHAHAHA PER-NAME] [             2285000] bit           6 = 0
UVM_INFO /home/flyinglobster/i2c-bridge-uvm/i2c_master_axil/i2c_responder.sv(28) @ 2385000: uvm_test_top.env.i2c_resp [HAHAHAHAHA PER-NAME] [             2385000] bit           5 = 0
UVM_INFO /home/flyinglobster/i2c-bridge-uvm/i2c_master_axil/i2c_responder.sv(28) @ 2485000: uvm_test_top.env.i2c_resp [HAHAHAHAHA PER-NAME] [             2485000] bit           4 = 0
UVM_INFO /home/flyinglobster/i2c-bridge-uvm/i2c_master_axil/i2c_responder.sv(28) @ 2585000: uvm_test_top.env.i2c_resp [HAHAHAHAHA PER-NAME] [             2585000] bit           3 = 0
UVM_INFO /home/flyinglobster/i2c-bridge-uvm/i2c_master_axil/i2c_responder.sv(28) @ 2685000: uvm_test_top.env.i2c_resp [HAHAHAHAHA PER-NAME] [             2685000] bit           2 = 0
UVM_INFO /home/flyinglobster/i2c-bridge-uvm/i2c_master_axil/i2c_responder.sv(28) @ 2785000: uvm_test_top.env.i2c_resp [HAHAHAHAHA PER-NAME] [             2785000] bit           1 = 0
UVM_INFO /home/flyinglobster/i2c-bridge-uvm/i2c_master_axil/i2c_responder.sv(28) @ 2885000: uvm_test_top.env.i2c_resp [HAHAHAHAHA PER-NAME] [             2885000] bit           0 = 0
UVM_INFO /home/flyinglobster/i2c-bridge-uvm/i2c_master_axil/i2c_monitor.sv(121) @ 2945000: uvm_test_top.env.i2c_mon [I2C_MON] Write data=0x80, ACK=0 at time 2945000
UVM_ERROR /home/flyinglobster/i2c-bridge-uvm/i2c_master_axil/i2c_master_scoreboard.sv(64) @ 2945000: uvm_test_top.env.scbd [SCBD] Unexpected I2C transaction received: addr=28 read=0 data=80
UVM_INFO /home/flyinglobster/i2c-bridge-uvm/i2c_master_axil/i2c_monitor.sv(74) @ 2945000: uvm_test_top.env.i2c_mon [I2C_MON] Waiting for I2C transaction...
UVM_INFO /home/flyinglobster/i2c-bridge-uvm/i2c_master_axil/i2c_responder.sv(28) @ 3125000: uvm_test_top.env.i2c_resp [HAHAHAHAHA PER-NAME] [             3125000] bit           7 = 1
UVM_INFO /home/flyinglobster/i2c-bridge-uvm/i2c_master_axil/i2c_responder.sv(28) @ 3225000: uvm_test_top.env.i2c_resp [HAHAHAHAHA PER-NAME] [             3225000] bit           6 = 0
UVM_INFO /home/flyinglobster/i2c-bridge-uvm/i2c_master_axil/i2c_responder.sv(28) @ 3325000: uvm_test_top.env.i2c_resp [HAHAHAHAHA PER-NAME] [             3325000] bit           5 = 1
UVM_INFO /home/flyinglobster/i2c-bridge-uvm/i2c_master_axil/axil_monitor.sv(55) @ 3365000: uvm_test_top.env.axil_mon [AXIL_MON] Collected read transaction: addr=0 data=00004807
UVM_INFO /home/flyinglobster/i2c-bridge-uvm/i2c_master_axil/i2c_master_scoreboard.sv(21) @ 3365000: uvm_test_top.env.scbd [SCBD] Received AXI transaction: addr=0 data=00004807 read=1
UVM_INFO /home/flyinglobster/i2c-bridge-uvm/i2c_master_axil/i2c_master_scoreboard.sv(21) @ 3365000: uvm_test_top.env.scbd [SCBD] Received AXI transaction: addr=0 data=00000000 read=0
UVM_INFO /home/flyinglobster/i2c-bridge-uvm/i2c_master_axil/i2c_responder.sv(28) @ 3425000: uvm_test_top.env.i2c_resp [HAHAHAHAHA PER-NAME] [             3425000] bit           4 = 0
UVM_INFO /home/flyinglobster/i2c-bridge-uvm/i2c_master_axil/i2c_responder.sv(28) @ 3525000: uvm_test_top.env.i2c_resp [HAHAHAHAHA PER-NAME] [             3525000] bit           3 = 0
UVM_INFO /home/flyinglobster/i2c-bridge-uvm/i2c_master_axil/i2c_responder.sv(28) @ 3625000: uvm_test_top.env.i2c_resp [HAHAHAHAHA PER-NAME] [             3625000] bit           2 = 1
UVM_INFO /home/flyinglobster/i2c-bridge-uvm/i2c_master_axil/i2c_responder.sv(28) @ 3725000: uvm_test_top.env.i2c_resp [HAHAHAHAHA PER-NAME] [             3725000] bit           1 = 0
UVM_INFO /home/flyinglobster/i2c-bridge-uvm/i2c_master_axil/i2c_responder.sv(28) @ 3825000: uvm_test_top.env.i2c_resp [HAHAHAHAHA PER-NAME] [             3825000] bit           0 = 1
UVM_INFO /home/flyinglobster/i2c-bridge-uvm/i2c_master_axil/i2c_responder.sv(79) @ 3985000: uvm_test_top.env.i2c_resp [I2C_RESP] Received data: a5
UVM_INFO /home/flyinglobster/i2c-bridge-uvm/i2c_master_axil/axil_monitor.sv(55) @ 4405000: uvm_test_top.env.axil_mon [AXIL_MON] Collected read transaction: addr=0 data=00004900
UVM_INFO /home/flyinglobster/i2c-bridge-uvm/i2c_master_axil/i2c_master_scoreboard.sv(21) @ 4405000: uvm_test_top.env.scbd [SCBD] Received AXI transaction: addr=0 data=00004900 read=1
UVM_INFO /home/flyinglobster/i2c-bridge-uvm/i2c_master_axil/i2c_master_scoreboard.sv(21) @ 4405000: uvm_test_top.env.scbd [SCBD] Received AXI transaction: addr=0 data=00000000 read=0
UVM_INFO /home/flyinglobster/i2c-bridge-uvm/i2c_master_axil/i2c_responder.sv(21) @ 9465000: uvm_test_top.env.i2c_resp [I2C_RESP] START condition detected
UVM_INFO /home/flyinglobster/i2c-bridge-uvm/i2c_master_axil/i2c_monitor.sv(37) @ 9475000: uvm_test_top.env.i2c_mon [I2C_MON] START condition detected at time 9475000
UVM_INFO /home/flyinglobster/i2c-bridge-uvm/i2c_master_axil/axil_monitor.sv(41) @ 9485000: uvm_test_top.env.axil_mon [AXIL_MON] Collected write transaction: addr=4 data=00000000
UVM_INFO /home/flyinglobster/i2c-bridge-uvm/i2c_master_axil/i2c_master_scoreboard.sv(21) @ 9485000: uvm_test_top.env.scbd [SCBD] Received AXI transaction: addr=4 data=00000000 read=0
UVM_INFO /home/flyinglobster/i2c-bridge-uvm/i2c_master_axil/i2c_master_scoreboard.sv(31) @ 9485000: uvm_test_top.env.scbd [SCBD] Queued expected I2C transaction: addr=00 read=0 data=00
UVM_INFO /home/flyinglobster/i2c-bridge-uvm/i2c_master_axil/i2c_master_scoreboard.sv(21) @ 9485000: uvm_test_top.env.scbd [SCBD] Received AXI transaction: addr=0 data=00000000 read=0
UVM_INFO /home/flyinglobster/i2c-bridge-uvm/i2c_master_axil/sequences/write_read_seq.sv(47) @ 9525000: uvm_test_top.env.axil_seqr@@wr_seq [SEQ] Sending I2C read command: addr=50
UVM_INFO /home/flyinglobster/i2c-bridge-uvm/i2c_master_axil/i2c_responder.sv(28) @ 9535000: uvm_test_top.env.i2c_resp [HAHAHAHAHA PER-NAME] [             9535000] bit           7 = 1
UVM_INFO /home/flyinglobster/i2c-bridge-uvm/i2c_master_axil/i2c_responder.sv(28) @ 9635000: uvm_test_top.env.i2c_resp [HAHAHAHAHA PER-NAME] [             9635000] bit           6 = 0
UVM_INFO /home/flyinglobster/i2c-bridge-uvm/i2c_master_axil/i2c_responder.sv(28) @ 9735000: uvm_test_top.env.i2c_resp [HAHAHAHAHA PER-NAME] [             9735000] bit           5 = 1
UVM_INFO /home/flyinglobster/i2c-bridge-uvm/i2c_master_axil/i2c_responder.sv(28) @ 9835000: uvm_test_top.env.i2c_resp [HAHAHAHAHA PER-NAME] [             9835000] bit           4 = 0
UVM_INFO /home/flyinglobster/i2c-bridge-uvm/i2c_master_axil/i2c_responder.sv(28) @ 9935000: uvm_test_top.env.i2c_resp [HAHAHAHAHA PER-NAME] [             9935000] bit           3 = 0
UVM_INFO /home/flyinglobster/i2c-bridge-uvm/i2c_master_axil/i2c_responder.sv(28) @ 10035000: uvm_test_top.env.i2c_resp [HAHAHAHAHA PER-NAME] [            10035000] bit           2 = 0
UVM_INFO /home/flyinglobster/i2c-bridge-uvm/i2c_master_axil/i2c_responder.sv(28) @ 10135000: uvm_test_top.env.i2c_resp [HAHAHAHAHA PER-NAME] [            10135000] bit           1 = 0
UVM_INFO /home/flyinglobster/i2c-bridge-uvm/i2c_master_axil/i2c_responder.sv(28) @ 10235000: uvm_test_top.env.i2c_resp [HAHAHAHAHA PER-NAME] [            10235000] bit           0 = 0
UVM_INFO /home/flyinglobster/i2c-bridge-uvm/i2c_master_axil/i2c_monitor.sv(90) @ 10295000: uvm_test_top.env.i2c_mon [I2C_MON] Address byte=0x50, ACK=0 at time 10295000
UVM_INFO /home/flyinglobster/i2c-bridge-uvm/i2c_master_axil/i2c_responder.sv(28) @ 10465000: uvm_test_top.env.i2c_resp [HAHAHAHAHA PER-NAME] [            10465000] bit           7 = 0
UVM_INFO /home/flyinglobster/i2c-bridge-uvm/i2c_master_axil/axil_monitor.sv(55) @ 10565000: uvm_test_top.env.axil_mon [AXIL_MON] Collected read transaction: addr=8 data=00000000
UVM_INFO /home/flyinglobster/i2c-bridge-uvm/i2c_master_axil/i2c_master_scoreboard.sv(21) @ 10565000: uvm_test_top.env.scbd [SCBD] Received AXI transaction: addr=8 data=00000000 read=1
UVM_INFO /home/flyinglobster/i2c-bridge-uvm/i2c_master_axil/i2c_responder.sv(28) @ 10565000: uvm_test_top.env.i2c_resp [HAHAHAHAHA PER-NAME] [            10565000] bit           6 = 0
UVM_INFO /home/flyinglobster/i2c-bridge-uvm/i2c_master_axil/i2c_master_scoreboard.sv(21) @ 10565000: uvm_test_top.env.scbd [SCBD] Received AXI transaction: addr=0 data=00000000 read=0
UVM_INFO /home/flyinglobster/i2c-bridge-uvm/i2c_master_axil/i2c_responder.sv(28) @ 10665000: uvm_test_top.env.i2c_resp [HAHAHAHAHA PER-NAME] [            10665000] bit           5 = 0
UVM_INFO /home/flyinglobster/i2c-bridge-uvm/i2c_master_axil/i2c_responder.sv(28) @ 10765000: uvm_test_top.env.i2c_resp [HAHAHAHAHA PER-NAME] [            10765000] bit           4 = 0
UVM_INFO /home/flyinglobster/i2c-bridge-uvm/i2c_master_axil/i2c_responder.sv(28) @ 10865000: uvm_test_top.env.i2c_resp [HAHAHAHAHA PER-NAME] [            10865000] bit           3 = 0
UVM_INFO /home/flyinglobster/i2c-bridge-uvm/i2c_master_axil/i2c_responder.sv(28) @ 10965000: uvm_test_top.env.i2c_resp [HAHAHAHAHA PER-NAME] [            10965000] bit           2 = 0
UVM_INFO /home/flyinglobster/i2c-bridge-uvm/i2c_master_axil/i2c_responder.sv(28) @ 11065000: uvm_test_top.env.i2c_resp [HAHAHAHAHA PER-NAME] [            11065000] bit           1 = 0
UVM_INFO /home/flyinglobster/i2c-bridge-uvm/i2c_master_axil/i2c_responder.sv(28) @ 11165000: uvm_test_top.env.i2c_resp [HAHAHAHAHA PER-NAME] [            11165000] bit           0 = 0
UVM_INFO /home/flyinglobster/i2c-bridge-uvm/i2c_master_axil/i2c_monitor.sv(121) @ 11225000: uvm_test_top.env.i2c_mon [I2C_MON] Write data=0x80, ACK=0 at time 11225000
UVM_INFO /home/flyinglobster/i2c-bridge-uvm/i2c_master_axil/i2c_master_scoreboard.sv(54) @ 11225000: uvm_test_top.env.scbd [SCBD] Comparing I2C transaction - Expected: addr=00 read=0 data=00, Got: addr=28 read=0 data=80
UVM_ERROR /home/flyinglobster/i2c-bridge-uvm/i2c_master_axil/i2c_master_scoreboard.sv(58) @ 11225000: uvm_test_top.env.scbd [SCBD] I2C Mismatch! Expected: addr=00 read=0 data=00, Got: addr=28 read=0 data=80
UVM_INFO /home/flyinglobster/i2c-bridge-uvm/i2c_master_axil/i2c_monitor.sv(74) @ 11225000: uvm_test_top.env.i2c_mon [I2C_MON] Waiting for I2C transaction...
UVM_INFO /home/flyinglobster/i2c-bridge-uvm/i2c_master_axil/i2c_responder.sv(28) @ 11395000: uvm_test_top.env.i2c_resp [HAHAHAHAHA PER-NAME] [            11395000] bit           7 = 1
UVM_INFO /home/flyinglobster/i2c-bridge-uvm/i2c_master_axil/i2c_monitor.sv(37) @ 11445000: uvm_test_top.env.i2c_mon [I2C_MON] START condition detected at time 11445000
UVM_INFO /home/flyinglobster/i2c-bridge-uvm/i2c_master_axil/i2c_responder.sv(28) @ 11505000: uvm_test_top.env.i2c_resp [HAHAHAHAHA PER-NAME] [            11505000] bit           6 = 1
UVM_INFO /home/flyinglobster/i2c-bridge-uvm/i2c_master_axil/axil_monitor.sv(55) @ 11605000: uvm_test_top.env.axil_mon [AXIL_MON] Collected read transaction: addr=8 data=00000000
UVM_INFO /home/flyinglobster/i2c-bridge-uvm/i2c_master_axil/i2c_master_scoreboard.sv(21) @ 11605000: uvm_test_top.env.scbd [SCBD] Received AXI transaction: addr=8 data=00000000 read=1
UVM_INFO /home/flyinglobster/i2c-bridge-uvm/i2c_master_axil/i2c_responder.sv(28) @ 11605000: uvm_test_top.env.i2c_resp [HAHAHAHAHA PER-NAME] [            11605000] bit           5 = 0
UVM_INFO /home/flyinglobster/i2c-bridge-uvm/i2c_master_axil/i2c_master_scoreboard.sv(21) @ 11605000: uvm_test_top.env.scbd [SCBD] Received AXI transaction: addr=0 data=00000000 read=0
UVM_INFO /home/flyinglobster/i2c-bridge-uvm/i2c_master_axil/i2c_responder.sv(28) @ 11705000: uvm_test_top.env.i2c_resp [HAHAHAHAHA PER-NAME] [            11705000] bit           4 = 1
UVM_INFO /home/flyinglobster/i2c-bridge-uvm/i2c_master_axil/i2c_responder.sv(28) @ 11805000: uvm_test_top.env.i2c_resp [HAHAHAHAHA PER-NAME] [            11805000] bit           3 = 0
UVM_INFO /home/flyinglobster/i2c-bridge-uvm/i2c_master_axil/i2c_responder.sv(28) @ 11905000: uvm_test_top.env.i2c_resp [HAHAHAHAHA PER-NAME] [            11905000] bit           2 = 0
UVM_INFO /home/flyinglobster/i2c-bridge-uvm/i2c_master_axil/i2c_responder.sv(28) @ 12005000: uvm_test_top.env.i2c_resp [HAHAHAHAHA PER-NAME] [            12005000] bit           1 = 0
UVM_INFO /home/flyinglobster/i2c-bridge-uvm/i2c_master_axil/i2c_responder.sv(28) @ 12105000: uvm_test_top.env.i2c_resp [HAHAHAHAHA PER-NAME] [            12105000] bit           0 = 0
UVM_INFO /home/flyinglobster/i2c-bridge-uvm/i2c_master_axil/i2c_responder.sv(79) @ 12255000: uvm_test_top.env.i2c_resp [I2C_RESP] Received data: d0
UVM_INFO /home/flyinglobster/i2c-bridge-uvm/i2c_master_axil/i2c_monitor.sv(90) @ 12265000: uvm_test_top.env.i2c_mon [I2C_MON] Address byte=0x50, ACK=1 at time 12265000
UVM_INFO /home/flyinglobster/i2c-bridge-uvm/i2c_master_axil/i2c_monitor.sv(74) @ 12265000: uvm_test_top.env.i2c_mon [I2C_MON] Waiting for I2C transaction...
UVM_INFO /home/flyinglobster/i2c-bridge-uvm/i2c_master_axil/axil_monitor.sv(55) @ 12645000: uvm_test_top.env.axil_mon [AXIL_MON] Collected read transaction: addr=8 data=00000000
UVM_INFO /home/flyinglobster/i2c-bridge-uvm/i2c_master_axil/i2c_master_scoreboard.sv(21) @ 12645000: uvm_test_top.env.scbd [SCBD] Received AXI transaction: addr=8 data=00000000 read=1
UVM_INFO /home/flyinglobster/i2c-bridge-uvm/i2c_master_axil/i2c_master_scoreboard.sv(21) @ 12645000: uvm_test_top.env.scbd [SCBD] Received AXI transaction: addr=0 data=00000000 read=0
UVM_INFO /home/flyinglobster/i2c-bridge-uvm/i2c_master_axil/axil_monitor.sv(55) @ 13685000: uvm_test_top.env.axil_mon [AXIL_MON] Collected read transaction: addr=8 data=000003ff
UVM_INFO /home/flyinglobster/i2c-bridge-uvm/i2c_master_axil/i2c_master_scoreboard.sv(21) @ 13685000: uvm_test_top.env.scbd [SCBD] Received AXI transaction: addr=8 data=000003ff read=1
UVM_INFO /home/flyinglobster/i2c-bridge-uvm/i2c_master_axil/i2c_master_scoreboard.sv(21) @ 13685000: uvm_test_top.env.scbd [SCBD] Received AXI transaction: addr=0 data=00000000 read=0
UVM_INFO /home/flyinglobster/i2c-bridge-uvm/i2c_master_axil/sequences/write_read_seq.sv(60) @ 13685000: uvm_test_top.env.axil_seqr@@wr_seq [SEQ] Read data: ff
UVM_INFO /media/flyinglobster/wd/vivado/Vivado/2024.1/data/system_verilog/uvm_1.2/xlnx_uvm_package.sv(19968) @ 23685000: reporter [TEST_DONE] 'run' phase is ready to proceed to the 'extract' phase
UVM_INFO /home/flyinglobster/i2c-bridge-uvm/i2c_master_axil/i2c_master_scoreboard.sv(38) @ 23685000: uvm_test_top.env.scbd [SCBD] Total AXI transactions: 18
UVM_INFO /home/flyinglobster/i2c-bridge-uvm/i2c_master_axil/i2c_master_scoreboard.sv(40) @ 23685000: uvm_test_top.env.scbd [SCBD] Remaining expected I2C transactions: 0
UVM_INFO /media/flyinglobster/wd/vivado/Vivado/2024.1/data/system_verilog/uvm_1.2/xlnx_uvm_package.sv(13673) @ 23685000: reporter [UVM/REPORT/SERVER] 
--- UVM Report Summary ---

** Report counts by severity
UVM_INFO :  106
UVM_WARNING :    0
UVM_ERROR :    2
UVM_FATAL :    0
** Report counts by id
[AXIL_MON]     9
[ENV]     1
[HAHAHAHAHA PER-NAME]    48
[I2C_MON]    12
[I2C_RESP]     4
[RNTST]     1
[SCBD]    24
[SEQ]     4
[TEST]     2
[TEST_DONE]     1
[UVM/COMP/NAMECHECK]     1
[UVM/RELNOTES]     1

$finish called at time : 23685 ns : File "/media/flyinglobster/wd/vivado/Vivado/2024.1/data/system_verilog/uvm_1.2/xlnx_uvm_package.sv" Line 18699
exit
INFO: [Common 17-206] Exiting xsim at Tue Nov  5 17:55:43 2024...
